!
! Port[1] = P1
! Port[2] = P2
! Port[3] = P3
! Port[4] = P4
!
# MHz S MA R 50.00
!
! FREQ                  S11                         S12                         S13                         S14
!                       S21                         S22                         S23                         S24
!                       S31                         S32                         S33                         S34
!                       S41                         S42                         S43                         S44                         
!                       
!                  MAG       ANG               MAG       ANG               MAG       ANG               MAG       ANG               
  10.000       0.107268    21.352143       0.933047   -22.684587       0.057433    62.971485       0.004601  -172.739546    
               0.915522   -24.986538       0.121112    20.202721       0.007360  -153.737267       0.059433    63.819951    
               0.058230    61.069220       0.005638  -161.094911       0.113614    20.020099       0.924079   -24.091049    
               0.007087  -172.568340       0.060400    65.947915       0.908987   -25.287550       0.123370    20.055865    
            
  20.000       0.153533     8.179240       0.897177   -50.557591       0.100971    38.348031       0.011338   154.698962    
               0.896664   -51.175156       0.150963     8.709093       0.011486   148.713871       0.101320    38.595149    
               0.100740    37.965898       0.011380   150.490623       0.153918     9.459683       0.896871   -51.129995    
               0.010399   148.200588       0.101595    40.003974       0.895445   -51.071968       0.152555     8.301811    
            
  30.000       0.175249    -7.954676       0.884937   -75.517386       0.126900    15.304667       0.013954    98.638042    
               0.890482   -76.344447       0.172495    -6.511996       0.013684    97.010925       0.126973    16.017716    
               0.127127    14.903820       0.013467    99.444680       0.177238    -6.275264       0.883817   -75.999117    
               0.012944    98.245269       0.127000    16.966176       0.887461   -76.205942       0.175296    -6.425766    
            
  40.000       0.175883   -26.639745       0.881070  -100.412313       0.132030    -7.541257       0.014418    42.575272    
               0.880446  -101.136942       0.174736   -24.857565       0.014087    42.055141       0.132251    -6.245768    
               0.131749    -7.921643       0.014057    44.683930       0.178298   -24.829189       0.878541  -100.753046    
               0.013940    44.860514       0.132162    -5.666424       0.878632  -100.931803       0.177450   -24.778989    
            
  50.000       0.152620   -46.505564       0.880482  -125.301505       0.115473   -30.315788       0.013441   -15.939087    
               0.878347  -125.725535       0.152703   -44.734909       0.013112   -16.174148       0.115850   -28.101203    
               0.115031   -30.486998       0.012976   -15.375180       0.155041   -44.937180       0.880117  -125.619265    
               0.013501   -15.106312       0.115462   -27.538715       0.879944  -125.758974       0.154172   -45.743838    
            
  60.000       0.106991   -65.614730       0.881710  -150.497909       0.077877   -51.701310       0.012029   -82.287282    
               0.882090  -150.803806       0.106507   -64.330524       0.011592   -82.627275       0.079060   -48.063799    
               0.077911   -51.776611       0.011655   -81.128974       0.107098   -63.228312       0.882668  -150.807688    
               0.012261   -82.642305       0.078862   -47.383192       0.882972  -150.891046       0.107401   -66.462798    
            
  70.000       0.048481   -73.646003       0.880782  -175.830034       0.027520   -58.502694       0.010945  -153.676982    
               0.880634  -176.172101       0.047015   -75.607398       0.010617  -154.659190       0.030636   -50.232006    
               0.027771   -58.382011       0.010582  -153.267228       0.048411   -68.369448       0.882031  -176.141060    
               0.011310  -154.792896       0.030235   -48.948157       0.882095  -176.221475       0.044416   -78.308600    
            
  80.000       0.031015     8.211249       0.875419   158.693981       0.034369    47.098337       0.010753   134.463290    
               0.875235   158.408583       0.027237    18.961325       0.010454   133.657659       0.036329    41.313149    
               0.034261    47.143483       0.010376   134.050814       0.035011    11.355400       0.876416   158.443774    
               0.010588   135.268642       0.036247    41.842243       0.875991   158.327117       0.028425    26.672983    
            
  90.000       0.080373    16.020596       0.864140   133.455010       0.081835    35.982056       0.010020    68.623110    
               0.863618   133.198223       0.077879    24.887821       0.010259    68.380327       0.082830    34.010014    
               0.081784    35.961686       0.009911    68.915339       0.085877    17.730061       0.865283   133.193195    
               0.010058    69.927700       0.082516    34.393869       0.864164   133.136219       0.082411    26.256753    
            
 100.000       0.117808    -0.259988       0.852888   108.639624       0.115078    15.620995       0.008794     9.045114    
               0.852666   108.412412       0.116466     8.049545       0.008946     9.723352       0.115767    15.067733    
               0.114857    15.512216       0.008952     9.726202       0.125012     1.705840       0.853376   108.396614    
               0.008699     9.751000       0.115341    15.300273       0.852595   108.316044       0.121881     8.285790    
            
 110.000       0.137315   -19.831629       0.845059    84.085349       0.128782    -5.845139       0.005722   -48.898691    
               0.844612    83.821342       0.135957   -11.074757       0.006208   -48.748776       0.129449    -5.421370    
               0.128401    -6.002964       0.006256   -47.746435       0.144561   -17.992107       0.845810    83.840883    
               0.006196   -48.489195       0.128944    -5.146393       0.844781    83.775125       0.141940   -11.723425    
            
 120.000       0.135671   -40.584795       0.842137    59.572868       0.121730   -27.158228       0.002218  -141.699651    
               0.840663    59.406278       0.134752   -30.520760       0.002190  -124.948037       0.122395   -25.769055    
               0.121320   -27.153816       0.002226  -127.699792       0.141386   -38.409844       0.843157    59.398379    
               0.002287  -136.985002       0.121738   -25.519553       0.841344    59.371015       0.140070   -32.070372    
            
 130.000       0.112556   -61.469830       0.842163    34.869666       0.094601   -47.531527       0.004556    65.766846    
               0.841723    34.746013       0.112410   -49.337322       0.004031    60.785865       0.095680   -45.015575    
               0.094435   -47.474955       0.004029    63.093814       0.115991   -58.437975       0.843197    34.716412    
               0.004515    67.133664       0.095257   -44.650903       0.841938    34.722906       0.115893   -51.759797    
            
 140.000       0.072715   -80.818561       0.841465     9.944431       0.051186   -62.620394       0.009202     6.384611    
               0.841319     9.785198       0.074268   -64.562075       0.008801     3.474928       0.052994   -57.315332    
               0.051061   -62.636420       0.008655     4.444446       0.073696   -75.936544       0.842929     9.818050    
               0.009219     7.113211       0.052771   -57.016332       0.841873     9.797858       0.074575   -68.232086    
            
 150.000       0.025973   -78.516050       0.840535   -15.206771       0.018905     2.910851       0.014367   -41.929846    
               0.840255   -15.331938       0.034554   -51.982410       0.013923   -43.634795       0.023699    -0.257652    
               0.018838     2.837326       0.013866   -43.306104       0.027517   -65.651384       0.841610   -15.407477    
               0.014422   -41.953347       0.023649     0.118880       0.840586   -15.380112       0.030901   -55.262125    
            
 160.000       0.032905    11.060158       0.833720   -40.362287       0.061495    33.309583       0.016759   -89.255074    
               0.833504   -40.525225       0.041506     4.507817       0.016553   -90.284648       0.063107    30.042779    
               0.061404    33.240831       0.016422   -90.251339       0.039192    11.094725       0.834430   -40.548687    
               0.016786   -89.328815       0.062851    30.195959       0.833781   -40.579662       0.041764     9.865367    
            
 170.000       0.070551     4.145774       0.823897   -65.328666       0.102069    17.061204       0.016713  -131.857839    
               0.823953   -65.449853       0.074305     4.844392       0.016685  -132.635106       0.103221    15.843381    
               0.102036    16.974683       0.016589  -132.278242       0.077481     5.005619       0.824377   -65.481947    
               0.016681  -131.684732       0.102888    16.079164       0.823785   -65.487986       0.077500     6.706417    
            
 180.000       0.094752   -14.383473       0.815154   -89.946687       0.126411    -3.206618       0.014256  -167.983420    
               0.815413   -90.075124       0.097415    -9.227831       0.014678  -168.651754       0.127336    -3.261885    
               0.126090    -3.166675       0.014838  -168.131687       0.101571   -12.250194       0.815838   -90.118149    
               0.014545  -167.823860       0.126839    -3.021318       0.814940   -90.072001       0.100846    -9.279150    
            
 190.000       0.102477   -35.193852       0.809891  -114.519644       0.131018   -23.951222       0.011677   168.201964    
               0.809632  -114.656952       0.104530   -26.160428       0.012196   166.381798       0.131926   -23.199274    
               0.130701   -24.006102       0.012353   166.322725       0.107575   -31.443507       0.810351  -114.614712    
               0.011680   167.454150       0.131512   -23.099972       0.809485  -114.581759       0.106808   -27.971335    
            
 200.000       0.093464   -56.634268       0.807176  -139.147019       0.115840   -44.624266       0.011296   157.161917    
               0.807229  -139.270956       0.096025   -43.490525       0.011852   151.794636       0.116843   -43.033279    
               0.115503   -44.598274       0.011901   151.624258       0.095971   -50.522738       0.807974  -139.232742    
               0.011229   156.283951       0.116366   -42.792878       0.807401  -139.223062       0.095458   -47.633286    
            
 210.000       0.069243   -82.052442       0.801178  -163.925801       0.080563   -66.075481       0.012173   127.556890    
               0.801269  -163.993357       0.072114   -62.136586       0.012559   120.166378       0.082651   -63.229773    
               0.080488   -66.010478       0.012557   120.425263       0.067421   -70.406677       0.802606  -163.999429    
               0.012183   127.884908       0.082319   -63.112412       0.802253  -164.014009       0.066974   -69.182987    
            
 220.000       0.028392   -92.777131       0.804420   171.680767       0.032644   -58.238355       0.015621   135.300363    
               0.804254   171.587145       0.037780   -55.423118       0.014531   130.662234       0.034557   -55.385059    
               0.032614   -58.523474       0.014404   130.297866       0.029602   -57.003709       0.806079   171.521535    
               0.015679   135.977089       0.034503   -55.075389       0.805552   171.491132       0.024487   -64.323717    
            
 230.000       0.011250    -4.278943       0.802024   146.412920       0.036297    14.469879       0.022041    97.297083    
               0.802036   146.339989       0.031229   -18.069441       0.020562    94.344237       0.037987    12.999652    
               0.036157    14.456591       0.020466    94.513011       0.033302    -2.196711       0.803361   146.288817    
               0.022041    97.499351       0.037804    12.938341       0.802931   146.270571       0.025822    17.591132    
            
 240.000       0.037433    11.524742       0.794755   121.374369       0.078816    14.654189       0.024791    61.351597    
               0.794900   121.291234       0.047338    -2.809743       0.023129    59.249966       0.079987    15.047505    
               0.078661    14.626290       0.022996    59.391872       0.060413     0.257418       0.796595   121.249140    
               0.024709    61.681983       0.079586    15.077679       0.796279   121.230868       0.055559    18.899163    
            
 250.000       0.054748    -6.603918       0.786732    96.531836       0.113234    -2.338248       0.025234    28.616517    
               0.786674    96.461020       0.060617   -10.620751       0.023623    27.166802       0.114485    -0.932005    
               0.112708    -2.229538       0.023501    27.898474       0.079523   -14.959433       0.789466    96.378051    
               0.025410    28.443035       0.113822    -0.692945       0.788934    96.358879       0.075732     4.423792    
            
 260.000       0.057826   -27.128756       0.779800    71.814316       0.130923   -22.588177       0.025506    -0.635369    
               0.779471    71.750019       0.062891   -23.467080       0.023837    -0.491890       0.132544   -20.222436    
               0.130596   -22.140058       0.023808     0.220501       0.082548   -34.781605       0.782665    71.491793    
               0.025475    -0.331257       0.132117   -19.810451       0.782130    71.471623       0.081115   -12.263466    
            
 270.000       0.047768   -50.726066       0.774036    47.054391       0.129411   -43.838090       0.027320   -28.359257    
               0.773585    46.994537       0.053208   -37.209544       0.025931   -27.034466       0.131689   -40.382059    
               0.129893   -43.578315       0.026099   -26.882960       0.069888   -56.436871       0.772919    46.658195    
               0.027181   -28.318630       0.132012   -40.146831       0.772141    46.640117       0.071024   -28.731538    
            
 280.000       0.027411   -99.267522       0.759358    22.116686       0.107355   -69.802962       0.030016   -71.726172    
               0.759202    22.060926       0.031572   -58.923138       0.029158   -70.575198       0.112095   -64.746452    
               0.107617   -69.638211       0.029334   -70.666691       0.044061   -91.297716       0.758048    21.962759    
               0.030027   -71.603479       0.112128   -64.608138       0.757567    21.959848       0.045277   -47.515639    
            
 290.000       0.032855    97.448757       0.759483    -1.011106       0.046804   -79.449908       0.011752   -75.134766    
               0.759302    -1.053401       0.029452    62.338541       0.011633   -73.293679       0.051024   -75.708510    
               0.047037   -79.492040       0.011648   -73.601814       0.018745    96.854881       0.759546    -1.218317    
               0.011812   -75.105104       0.050936   -75.736258       0.758628    -1.234542       0.027866    41.333198    
            
 300.000       0.060645    57.691832       0.765504   -26.214189       0.025812   -32.406849       0.024826   -85.115108    
               0.765620   -26.298843       0.065441    37.343754       0.024594   -85.340424       0.029760   -31.479229    
               0.025924   -32.362576       0.024625   -85.289328       0.055094    49.113865       0.764962   -26.447047    
               0.024884   -85.118121       0.029753   -31.527313       0.764519   -26.450599       0.065472    35.439051    
            
 310.000       0.083801    35.005457       0.760643   -51.418014       0.053399     4.921340       0.030549  -119.698089    
               0.760603   -51.458778       0.089079    18.690930       0.029913  -120.229061       0.055334     4.046578    
               0.053545     4.939013       0.029918  -120.279009       0.086163    26.402564       0.759695   -51.600238    
               0.030683  -119.772238       0.055285     4.171178       0.759080   -51.562997       0.093789    21.902189    
            
 320.000       0.095971    13.681119       0.753347   -76.338347       0.090674    -4.384016       0.032736  -152.638542    
               0.753413   -76.381874       0.100321    -0.608503       0.031586  -153.348953       0.091973    -2.810923    
               0.090886    -4.348274       0.031661  -153.304235       0.104811     4.338206       0.751903   -76.512256    
               0.032875  -152.554976       0.092116    -2.729047       0.751646   -76.494967       0.110565     5.219492    
            
 330.000       0.093582    -6.648673       0.745838  -101.157933       0.117935   -22.386910       0.033748   176.815455    
               0.745878  -101.193125       0.096891   -20.004090       0.032032   176.584881       0.119560   -18.863984    
               0.118150   -22.438451       0.032108   176.759487       0.107562   -17.559909       0.744060  -101.254907    
               0.033835   176.628924       0.119736   -18.910765       0.743987  -101.285427       0.112513   -12.202221    
            
 340.000       0.076411   -26.719048       0.737376  -126.040153       0.130291   -43.834146       0.036157   146.422647    
               0.737006  -126.114326       0.079718   -39.840919       0.034099   147.287720       0.133330   -38.374269    
               0.130322   -43.787747       0.034241   147.519919       0.093885   -40.323616       0.735740  -126.036425    
               0.036142   146.254742       0.133439   -38.332848       0.735396  -126.083564       0.099217   -29.929068    
            
 350.000       0.038452   -58.215419       0.716803  -150.904791       0.121322   -72.455759       0.040108   100.800749    
               0.716825  -150.935992       0.049377   -73.448009       0.037950   102.372275       0.127935   -64.171322    
               0.121318   -72.406533       0.038071   102.460101       0.060956   -74.339918       0.716981  -150.819583    
               0.040063   100.801825       0.127950   -64.116361       0.716729  -150.811924       0.067347   -54.630879    
            
 360.000       0.041932    80.059264       0.712959  -173.122425       0.060625   -94.769263       0.013821    49.797689    
               0.713026  -173.176036       0.030867   113.226926       0.012013    54.136204       0.069200   -85.392523    
               0.060826   -94.813897       0.012080    53.970561       0.016167   101.274174       0.715103  -173.206276    
               0.013837    50.048535       0.069323   -85.371699       0.714833  -173.207270       0.014491    49.297614    
            
 370.000       0.091210    49.897636       0.727433   161.949314       0.029335   -74.219331       0.019290   101.600690    
               0.727282   161.998218       0.082534    61.956487       0.020150   106.242682       0.038433   -62.612917    
               0.029450   -74.205047       0.020101   106.370156       0.066538    51.073788       0.728819   161.823221    
               0.019392   101.825007       0.038421   -62.526545       0.728627   161.820009       0.071393    45.393499    
            
 380.000       0.124044    30.275363       0.725591   136.696906       0.029919   -12.568638       0.029784    68.049569    
               0.725628   136.668615       0.119216    38.333155       0.030655    70.460138       0.041372   -21.426123    
